
T1998 000:589 SEGGER J-Link V4.90 Log File (0000ms, 0263ms total)
T1998 000:589 DLL Compiled: Jul 28 2014 10:35:20 (0000ms, 0263ms total)
T1998 000:589 Logging started @ 2016-07-04 21:18 (0000ms, 0263ms total)
T1998 000:589 JLINK_SetWarnOutHandler(...) (0000ms, 0263ms total)
T1998 000:589 JLINK_OpenEx(...)
Firmware: J-Link ARM V8 compiled Jul 17 2014 12:31:18
Hardware: V8.00
Feature(s): RDI,FlashDL,FlashBP,JFlash,GDBFULL  returns O.K. (0260ms, 0523ms total)
T1998 000:849 JLINK_SetErrorOutHandler(...) (0000ms, 0523ms total)
T1998 000:849 JLINK_ExecCommand("ProjectFile = "D:\hhhhhhhh\project\car_a\USER\JLinkSettings.ini"", ...)  returns 0x00 (0000ms, 0523ms total)
T1998 000:858 JLINK_ExecCommand("Device = STM32F407ZG", ...)Device "STM32F407ZG" selected (1024 KB flash, 128 KB RAM).  returns 0x00 (0003ms, 0526ms total)
T1998 000:861 JLINK_ExecCommand("DisableConnectionTimeout", ...)  returns 0x01 (0000ms, 0526ms total)
T1998 000:861 JLINK_GetHardwareVersion()  returns 0x13880 (0000ms, 0526ms total)
T1998 000:861 JLINK_GetDLLVersion()  returns 49000 (0000ms, 0526ms total)
T1998 000:861 JLINK_GetFirmwareString(...) (0000ms, 0526ms total)
T1998 000:865 JLINK_GetDLLVersion()  returns 49000 (0000ms, 0526ms total)
T1998 000:865 JLINK_GetCompileDateTime() (0000ms, 0526ms total)
T1998 000:866 JLINK_GetFirmwareString(...) (0000ms, 0526ms total)
T1998 000:867 JLINK_GetHardwareVersion()  returns 0x13880 (0000ms, 0526ms total)
T1998 000:870 JLINK_TIF_Select(JLINKARM_TIF_JTAG)  returns 0x00 (0001ms, 0527ms total)
T1998 000:871 JLINK_SetSpeed(50000) (0000ms, 0527ms total)
T1998 000:871 JLINK_GetIdData(...) >0x2F8 JTAG>TotalIRLen = 9, IRPrint = 0x0011 >0x30 JTAG> >0x210 JTAG> >0x40 JTAG> >0x40 JTAG> >0x40 JTAG> >0x30 JTAG> >0x40 JTAG> >0x40 JTAG> >0x40 JTAG> >0x40 JTAG> >0x40 JTAG> >0x40 JTAG> >0x40 JTAG> >0x40 JTAG> >0x40 JTAG> >0x40 JTAG> >0x40 JTAG> >0x2F8 JTAG>TotalIRLen = 9, IRPrint = 0x0011 >0x30 JTAG> >0x210 JTAG> >0x70 JTAG> >0x40 JTAG> >0x40 JTAG> >0x40 JTAG> >0x50 JTAG> >0x80 JTAG> >0x40 JTAG> >0x30 JTAG> >0x40 JTAG> >0x40 JTAG> >0x30 JTAG> >0x40 JTAG>
 >0x50 JTAG>Found Cortex-M4 r0p1, Little endian. -- CPU_WriteMem(4 bytes @ 0xE0002000) -- CPU_ReadMem(4 bytes @ 0xE000EDF0) -- CPU_ReadMem(4 bytes @ 0xE0002000)FPUnit: 6 code (BP) slots and 2 literal slots -- CPU_ReadMem(4 bytes @ 0xE000EDFC) -- CPU_ReadMem(4 bytes @ 0xE0001000) -- CPU_WriteMem(4 bytes @ 0xE0001000) -- CPU_ReadMem(4 bytes @ 0xE00FF010)TPIU fitted. -- CPU_ReadMem(4 bytes @ 0xE00FF014)ETM fitted. -- CPU_ReadMem(4 bytes @ 0xE00FF018) ScanLen=9 NumDevices=2 aId[0]=0x4BA00477 aIrRead[0]=0
 aScanLen[0]=0 aScanRead[0]=0 (0023ms, 0550ms total)
T1998 000:894 JLINK_JTAG_GetDeviceID(DeviceIndex = 0)  returns 0x4BA00477 (0000ms, 0550ms total)
T1998 000:894 JLINK_JTAG_GetDeviceInfo(DeviceIndex = 0)  returns 0x00 (0000ms, 0550ms total)
T1998 000:894 JLINK_JTAG_GetDeviceID(DeviceIndex = 1)  returns 0x6413041 (0000ms, 0550ms total)
T1998 000:894 JLINK_JTAG_GetDeviceInfo(DeviceIndex = 1)  returns 0x00 (0000ms, 0550ms total)
T1998 000:894 JLINK_GetDLLVersion()  returns 49000 (0000ms, 0550ms total)
T1998 000:894 JLINK_CORE_GetFound()  returns 0xE0000FF (0000ms, 0550ms total)
T1998 000:895 JLINK_ReadMem (0xE00FF000, 0x0020 Bytes, ...) -- CPU is running -- CPU_ReadMem(32 bytes @ 0xE00FF000) - Data: 03 F0 F0 FF 03 20 F0 FF 03 30 F0 FF 03 10 F0 FF ...  returns 0x00 (0001ms, 0551ms total)
T1998 000:896 JLINK_ReadMem (0xE000EFF0, 0x0010 Bytes, ...) -- CPU is running -- CPU_ReadMem(16 bytes @ 0xE000EFF0) - Data: 0D 00 00 00 E0 00 00 00 05 00 00 00 B1 00 00 00  returns 0x00 (0000ms, 0551ms total)
T1998 000:896 JLINK_ReadMem (0xE000EFD0, 0x0020 Bytes, ...) -- CPU is running -- CPU_ReadMem(32 bytes @ 0xE000EFD0) - Data: 04 00 00 00 00 00 00 00 00 00 00 00 00 00 00 00 ...  returns 0x00 (0001ms, 0552ms total)
T1998 000:897 JLINK_ReadMem (0xE0001FF0, 0x0010 Bytes, ...) -- CPU is running -- CPU_ReadMem(16 bytes @ 0xE0001FF0) - Data: 0D 00 00 00 E0 00 00 00 05 00 00 00 B1 00 00 00  returns 0x00 (0000ms, 0552ms total)
T1998 000:897 JLINK_ReadMem (0xE0001FD0, 0x0020 Bytes, ...) -- CPU is running -- CPU_ReadMem(32 bytes @ 0xE0001FD0) - Data: 04 00 00 00 00 00 00 00 00 00 00 00 00 00 00 00 ...  returns 0x00 (0001ms, 0553ms total)
T1998 000:898 JLINK_ReadMem (0xE0002FF0, 0x0010 Bytes, ...) -- CPU is running -- CPU_ReadMem(16 bytes @ 0xE0002FF0) - Data: 0D 00 00 00 E0 00 00 00 05 00 00 00 B1 00 00 00  returns 0x00 (0000ms, 0553ms total)
T1998 000:899 JLINK_ReadMem (0xE0002FD0, 0x0020 Bytes, ...) -- CPU is running -- CPU_ReadMem(32 bytes @ 0xE0002FD0) - Data: 04 00 00 00 00 00 00 00 00 00 00 00 00 00 00 00 ...  returns 0x00 (0000ms, 0553ms total)
T1998 000:899 JLINK_ReadMem (0xE0000FF0, 0x0010 Bytes, ...) -- CPU is running -- CPU_ReadMem(16 bytes @ 0xE0000FF0) - Data: 0D 00 00 00 E0 00 00 00 05 00 00 00 B1 00 00 00  returns 0x00 (0001ms, 0554ms total)
T1998 000:900 JLINK_ReadMem (0xE0000FD0, 0x0020 Bytes, ...) -- CPU is running -- CPU_ReadMem(32 bytes @ 0xE0000FD0) - Data: 04 00 00 00 00 00 00 00 00 00 00 00 00 00 00 00 ...  returns 0x00 (0000ms, 0554ms total)
T1998 000:900 JLINK_ReadMem (0xE0040FF0, 0x0010 Bytes, ...) -- CPU is running -- CPU_ReadMem(16 bytes @ 0xE0040FF0) - Data: 0D 00 00 00 90 00 00 00 05 00 00 00 B1 00 00 00  returns 0x00 (0000ms, 0554ms total)
T1998 000:901 JLINK_ReadMem (0xE0040FD0, 0x0020 Bytes, ...) -- CPU is running -- CPU_ReadMem(32 bytes @ 0xE0040FD0) - Data: 04 00 00 00 00 00 00 00 00 00 00 00 00 00 00 00 ...  returns 0x00 (0000ms, 0555ms total)
T1998 000:901 JLINK_ReadMem (0xE0041FF0, 0x0010 Bytes, ...) -- CPU is running -- CPU_ReadMem(16 bytes @ 0xE0041FF0) - Data: 0D 00 00 00 90 00 00 00 05 00 00 00 B1 00 00 00  returns 0x00 (0000ms, 0555ms total)
T1998 000:901 JLINK_ReadMem (0xE0041FD0, 0x0020 Bytes, ...) -- CPU is running -- CPU_ReadMem(32 bytes @ 0xE0041FD0) - Data: 04 00 00 00 00 00 00 00 00 00 00 00 00 00 00 00 ...  returns 0x00 (0001ms, 0556ms total)
T1998 000:902 JLINK_ReadMemU32(0xE000EF40, 0x0001 Items, ...) -- CPU is running -- CPU_ReadMem(4 bytes @ 0xE000EF40) - Data: 21 00 11 10  returns 0x01 (0000ms, 0556ms total)
T1998 000:902 JLINK_ReadMemU32(0xE000EF44, 0x0001 Items, ...) -- CPU is running -- CPU_ReadMem(4 bytes @ 0xE000EF44) - Data: 11 00 00 11  returns 0x01 (0001ms, 0557ms total)
T1998 000:903 JLINK_ReadMemU32(0xE000ED00, 0x0001 Items, ...) -- CPU is running -- CPU_ReadMem(4 bytes @ 0xE000ED00) - Data: 41 C2 0F 41  returns 0x01 (0000ms, 0557ms total)
T1998 000:903 JLINK_SetResetType(JLINKARM_RESET_TYPE_NORMAL)  returns JLINKARM_RESET_TYPE_NORMAL (0000ms, 0557ms total)
T1998 000:903 JLINK_Reset() -- CPU is running -- CPU_WriteMem(4 bytes @ 0xE000EDF0) -- CPU is running -- CPU_WriteMem(4 bytes @ 0xE000EDFC) -- CPU is running -- CPU_WriteMem(4 bytes @ 0xE000ED0C) -- CPU is running -- CPU_ReadMem(4 bytes @ 0xE000EDF0) -- CPU is running -- CPU_ReadMem(4 bytes @ 0xE000EDF0) -- CPU is running -- CPU_WriteMem(4 bytes @ 0xE000EDF0) -- CPU is running -- CPU_WriteMem(4 bytes @ 0xE000EDFC) -- CPU is running -- CPU_ReadMem(4 bytes @ 0xE000EDF0) >0x80 JTAG> >0x40 JTAG> >0x30 JTAG>
 >0x40 JTAG> >0x50 JTAG> >0x40 JTAG> -- CPU_WriteMem(4 bytes @ 0xE000EDFC) -- CPU_WriteMem(4 bytes @ 0xE0001028) -- CPU_WriteMem(4 bytes @ 0xE0001038) -- CPU_WriteMem(4 bytes @ 0xE0001048) -- CPU_WriteMem(4 bytes @ 0xE0001058) -- CPU_WriteMem(4 bytes @ 0xE0002000) -- CPU_ReadMem(4 bytes @ 0xE000EDFC) -- CPU_ReadMem(4 bytes @ 0xE0001000) (0022ms, 0579ms total)
T1998 000:926 JLINK_Halt()  returns 0x00 (0000ms, 0580ms total)
T1998 000:926 JLINK_IsHalted()  returns TRUE (0000ms, 0580ms total)
T1998 000:926 JLINK_ReadMemU32(0xE000EDF0, 0x0001 Items, ...) -- CPU_ReadMem(4 bytes @ 0xE000EDF0) - Data: 03 00 03 00  returns 0x01 (0000ms, 0580ms total)
T1998 000:926 JLINK_WriteU32(0xE000EDF0, 0xA05F0003) -- CPU_WriteMem(4 bytes @ 0xE000EDF0)  returns 0x00 (0000ms, 0580ms total)
T1998 000:926 JLINK_WriteU32(0xE000EDFC, 0x01000000) -- CPU_WriteMem(4 bytes @ 0xE000EDFC)  returns 0x00 (0001ms, 0581ms total)
T1998 000:931 JLINK_GetHWStatus(...)  returns 0x00 (0000ms, 0581ms total)
T1998 000:936 JLINK_GetNumBPUnits(Type = 0xFFFFFF00)  returns 0x06 (0000ms, 0581ms total)
T1998 000:936 JLINK_GetNumBPUnits(Type = 0xF0)  returns 0x2000 (0000ms, 0581ms total)
T1998 000:936 JLINK_GetNumWPUnits()  returns 0x04 (0000ms, 0581ms total)
T1998 000:938 JLINK_GetSpeed()  returns 0x2EE0 (0000ms, 0581ms total)
T1998 000:940 JLINK_ReadMemU32(0xE000E004, 0x0001 Items, ...) -- CPU_ReadMem(4 bytes @ 0xE000E004) - Data: 02 00 00 00  returns 0x01 (0000ms, 0581ms total)
T1998 000:940 JLINK_ReadMemU32(0xE000E004, 0x0001 Items, ...) -- CPU_ReadMem(4 bytes @ 0xE000E004) - Data: 02 00 00 00  returns 0x01 (0000ms, 0581ms total)
T1998 000:940 JLINK_WriteMem(0xE0001000, 0x001C Bytes, ...) - Data: 01 00 00 00 00 00 00 00 00 00 00 00 00 00 00 00 ... -- CPU_WriteMem(28 bytes @ 0xE0001000)  returns 0x1C (0001ms, 0582ms total)
T1998 000:941 JLINK_ReadMem (0xE0001000, 0x001C Bytes, ...) -- CPU_ReadMem(28 bytes @ 0xE0001000) - Data: 01 00 00 40 00 00 00 00 00 00 00 00 00 00 00 00 ...  returns 0x00 (0000ms, 0582ms total)
T1998 000:941 JLINK_Halt()  returns 0x00 (0000ms, 0582ms total)
T1998 000:941 JLINK_IsHalted()  returns TRUE (0000ms, 0582ms total)
T1998 000:945 JLINK_WriteMem(0x20000000, 0x0180 Bytes, ...) - Data: 00 BE 0A E0 0D 78 2D 06 68 40 08 24 40 00 00 D3 ... -- CPU_WriteMem(384 bytes @ 0x20000000)  returns 0x180 (0003ms, 0585ms total)
T1998 000:948 JLINK_WriteReg(R0, 0x08000000)  returns 0x00 (0000ms, 0585ms total)
T1998 000:948 JLINK_WriteReg(R1, 0x0A037A00)  returns 0x00 (0000ms, 0585ms total)
T1998 000:948 JLINK_WriteReg(R2, 0x00000001)  returns 0x00 (0000ms, 0585ms total)
T1998 000:948 JLINK_WriteReg(R3, 0x00000000)  returns 0x00 (0000ms, 0585ms total)
T1998 000:948 JLINK_WriteReg(R4, 0x00000000)  returns 0x00 (0000ms, 0585ms total)
T1998 000:948 JLINK_WriteReg(R5, 0x00000000)  returns 0x00 (0000ms, 0585ms total)
T1998 000:948 JLINK_WriteReg(R6, 0x00000000)  returns 0x00 (0000ms, 0585ms total)
T1998 000:948 JLINK_WriteReg(R7, 0x00000000)  returns 0x00 (0000ms, 0585ms total)
T1998 000:948 JLINK_WriteReg(R8, 0x00000000)  returns 0x00 (0000ms, 0585ms total)
T1998 000:948 JLINK_WriteReg(R9, 0x2000017C)  returns 0x00 (0000ms, 0585ms total)
T1998 000:948 JLINK_WriteReg(R10, 0x00000000)  returns 0x00 (0000ms, 0585ms total)
T1998 000:948 JLINK_WriteReg(R11, 0x00000000)  returns 0x00 (0000ms, 0585ms total)
T1998 000:948 JLINK_WriteReg(R12, 0x00000000)  returns 0x00 (0000ms, 0585ms total)
T1998 000:948 JLINK_WriteReg(R13 (SP), 0x20001000)  returns 0x00 (0000ms, 0585ms total)
T1998 000:948 JLINK_WriteReg(R14, 0x20000001)  returns 0x00 (0000ms, 0585ms total)
T1998 000:948 JLINK_WriteReg(R15 (PC), 0x20000054)  returns 0x00 (0000ms, 0585ms total)
T1998 000:948 JLINK_WriteReg(XPSR, 0x01000000)  returns 0x00 (0000ms, 0585ms total)
T1998 000:948 JLINK_WriteReg(MSP, 0x20001000)  returns 0x00 (0000ms, 0585ms total)
T1998 000:948 JLINK_WriteReg(PSP, 0x20001000)  returns 0x00 (0000ms, 0585ms total)
T1998 000:948 JLINK_WriteReg(CFBP, 0x00000000)  returns 0x00 (0000ms, 0585ms total)
T1998 000:948 JLINK_SetBPEx(Addr = 0x20000000, Type = 0xFFFFFFF2) -- CPU_ReadMem(2 bytes @ 0x20000000)  returns 0x00000001 (0001ms, 0586ms total)
T1998 000:949 JLINK_Go() -- CPU_WriteMem(2 bytes @ 0x20000000) -- CPU_WriteMem(4 bytes @ 0xE0002008) -- CPU_WriteMem(4 bytes @ 0xE000200C) -- CPU_WriteMem(4 bytes @ 0xE0002010) -- CPU_WriteMem(4 bytes @ 0xE0002014) -- CPU_WriteMem(4 bytes @ 0xE0002018) -- CPU_WriteMem(4 bytes @ 0xE000201C) -- CPU_WriteMem(4 bytes @ 0xE0001004) (0003ms, 0589ms total)
T1998 000:952 JLINK_IsHalted() -- CPU_ReadMem(2 bytes @ 0x20000000)  returns TRUE (0003ms, 0592ms total)
T1998 000:955 JLINK_ReadReg(R15 (PC))  returns 0x20000000 (0000ms, 0589ms total)
T1998 000:955 JLINK_ClrBPEx(BPHandle = 0x00000001)  returns 0x00 (0000ms, 0589ms total)
T1998 000:955 JLINK_ReadReg(R0)  returns 0x00000000 (0000ms, 0589ms total)
T1998 000:955 JLINK_WriteReg(R0, 0x08000000)  returns 0x00 (0000ms, 0589ms total)
T1998 000:955 JLINK_WriteReg(R1, 0x00004000)  returns 0x00 (0000ms, 0589ms total)
T1998 000:955 JLINK_WriteReg(R2, 0x000000FF)  returns 0x00 (0000ms, 0589ms total)
T1998 000:955 JLINK_WriteReg(R3, 0x00000000)  returns 0x00 (0000ms, 0589ms total)
T1998 000:955 JLINK_WriteReg(R4, 0x00000000)  returns 0x00 (0000ms, 0589ms total)
T1998 000:955 JLINK_WriteReg(R5, 0x00000000)  returns 0x00 (0000ms, 0589ms total)
T1998 000:955 JLINK_WriteReg(R6, 0x00000000)  returns 0x00 (0000ms, 0589ms total)
T1998 000:955 JLINK_WriteReg(R7, 0x00000000)  returns 0x00 (0000ms, 0589ms total)
T1998 000:955 JLINK_WriteReg(R8, 0x00000000)  returns 0x00 (0000ms, 0589ms total)
T1998 000:955 JLINK_WriteReg(R9, 0x2000017C)  returns 0x00 (0000ms, 0589ms total)
T1998 000:955 JLINK_WriteReg(R10, 0x00000000)  returns 0x00 (0000ms, 0589ms total)
T1998 000:955 JLINK_WriteReg(R11, 0x00000000)  returns 0x00 (0000ms, 0589ms total)
T1998 000:955 JLINK_WriteReg(R12, 0x00000000)  returns 0x00 (0000ms, 0589ms total)
T1998 000:955 JLINK_WriteReg(R13 (SP), 0x20001000)  returns 0x00 (0000ms, 0589ms total)
T1998 000:955 JLINK_WriteReg(R14, 0x20000001)  returns 0x00 (0000ms, 0589ms total)
T1998 000:955 JLINK_WriteReg(R15 (PC), 0x20000020)  returns 0x00 (0000ms, 0589ms total)
T1998 000:955 JLINK_WriteReg(XPSR, 0x01000000)  returns 0x00 (0000ms, 0589ms total)
T1998 000:955 JLINK_WriteReg(MSP, 0x20001000)  returns 0x00 (0001ms, 0590ms total)
T1998 000:956 JLINK_WriteReg(PSP, 0x20001000)  returns 0x00 (0000ms, 0590ms total)
T1998 000:956 JLINK_WriteReg(CFBP, 0x00000000)  returns 0x00 (0000ms, 0590ms total)
T1998 000:956 JLINK_SetBPEx(Addr = 0x20000000, Type = 0xFFFFFFF2)  returns 0x00000002 (0000ms, 0590ms total)
T1998 000:956 JLINK_Go() (0000ms, 0590ms total)
T1998 000:956 JLINK_IsHalted() -- CPU_ReadMem(2 bytes @ 0x20000000)  returns TRUE (0003ms, 0593ms total)
T1998 000:959 JLINK_ReadReg(R15 (PC))  returns 0x20000000 (0000ms, 0590ms total)
T1998 000:959 JLINK_ClrBPEx(BPHandle = 0x00000002)  returns 0x00 (0000ms, 0590ms total)
T1998 000:959 JLINK_ReadReg(R0)  returns 0x00000001 (0000ms, 0590ms total)
T1998 000:959 JLINK_WriteReg(R0, 0x08000000)  returns 0x00 (0000ms, 0590ms total)
T1998 000:959 JLINK_WriteReg(R1, 0x00004000)  returns 0x00 (0000ms, 0590ms total)
T1998 000:959 JLINK_WriteReg(R2, 0x000000FF)  returns 0x00 (0000ms, 0590ms total)
T1998 000:959 JLINK_WriteReg(R3, 0x00000000)  returns 0x00 (0000ms, 0590ms total)
T1998 000:959 JLINK_WriteReg(R4, 0x00000000)  returns 0x00 (0000ms, 0590ms total)
T1998 000:959 JLINK_WriteReg(R5, 0x00000000)  returns 0x00 (0000ms, 0590ms total)
T1998 000:959 JLINK_WriteReg(R6, 0x00000000)  returns 0x00 (0000ms, 0590ms total)
T1998 000:959 JLINK_WriteReg(R7, 0x00000000)  returns 0x00 (0000ms, 0590ms total)
T1998 000:959 JLINK_WriteReg(R8, 0x00000000)  returns 0x00 (0000ms, 0590ms total)
T1998 000:959 JLINK_WriteReg(R9, 0x2000017C)  returns 0x00 (0000ms, 0590ms total)
T1998 000:959 JLINK_WriteReg(R10, 0x00000000)  returns 0x00 (0000ms, 0590ms total)
T1998 000:959 JLINK_WriteReg(R11, 0x00000000)  returns 0x00 (0000ms, 0590ms total)
T1998 000:959 JLINK_WriteReg(R12, 0x00000000)  returns 0x00 (0000ms, 0590ms total)
T1998 000:959 JLINK_WriteReg(R13 (SP), 0x20001000)  returns 0x00 (0000ms, 0590ms total)
T1998 000:959 JLINK_WriteReg(R14, 0x20000001)  returns 0x00 (0000ms, 0590ms total)
T1998 000:959 JLINK_WriteReg(R15 (PC), 0x200000BC)  returns 0x00 (0000ms, 0590ms total)
T1998 000:959 JLINK_WriteReg(XPSR, 0x01000000)  returns 0x00 (0000ms, 0590ms total)
T1998 000:959 JLINK_WriteReg(MSP, 0x20001000)  returns 0x00 (0000ms, 0590ms total)
T1998 000:959 JLINK_WriteReg(PSP, 0x20001000)  returns 0x00 (0000ms, 0590ms total)
T1998 000:959 JLINK_WriteReg(CFBP, 0x00000000)  returns 0x00 (0000ms, 0590ms total)
T1998 000:959 JLINK_SetBPEx(Addr = 0x20000000, Type = 0xFFFFFFF2)  returns 0x00000003 (0000ms, 0590ms total)
T1998 000:959 JLINK_Go() (0001ms, 0591ms total)
T1998 000:960 JLINK_IsHalted()  returns FALSE (0000ms, 0591ms total)
T1998 001:081 JLINK_IsHalted()  returns FALSE (0000ms, 0591ms total)
T1998 001:164 JLINK_IsHalted()  returns FALSE (0000ms, 0591ms total)
T1998 001:266 JLINK_IsHalted()  returns FALSE (0000ms, 0591ms total)
T1998 001:361 JLINK_IsHalted() -- CPU_ReadMem(2 bytes @ 0x20000000)  returns TRUE (0002ms, 0593ms total)
T1998 001:363 JLINK_ReadReg(R15 (PC))  returns 0x20000000 (0000ms, 0591ms total)
T1998 001:363 JLINK_ClrBPEx(BPHandle = 0x00000003)  returns 0x00 (0000ms, 0591ms total)
T1998 001:363 JLINK_ReadReg(R0)  returns 0x00000000 (0000ms, 0591ms total)
T1998 001:364 JLINK_WriteReg(R0, 0x00000001)  returns 0x00 (0000ms, 0591ms total)
T1998 001:364 JLINK_WriteReg(R1, 0x00004000)  returns 0x00 (0000ms, 0591ms total)
T1998 001:364 JLINK_WriteReg(R2, 0x000000FF)  returns 0x00 (0000ms, 0591ms total)
T1998 001:364 JLINK_WriteReg(R3, 0x00000000)  returns 0x00 (0000ms, 0591ms total)
T1998 001:364 JLINK_WriteReg(R4, 0x00000000)  returns 0x00 (0000ms, 0591ms total)
T1998 001:364 JLINK_WriteReg(R5, 0x00000000)  returns 0x00 (0000ms, 0591ms total)
T1998 001:364 JLINK_WriteReg(R6, 0x00000000)  returns 0x00 (0000ms, 0591ms total)
T1998 001:364 JLINK_WriteReg(R7, 0x00000000)  returns 0x00 (0000ms, 0591ms total)
T1998 001:364 JLINK_WriteReg(R8, 0x00000000)  returns 0x00 (0000ms, 0591ms total)
T1998 001:364 JLINK_WriteReg(R9, 0x2000017C)  returns 0x00 (0000ms, 0591ms total)
T1998 001:364 JLINK_WriteReg(R10, 0x00000000)  returns 0x00 (0000ms, 0591ms total)
T1998 001:364 JLINK_WriteReg(R11, 0x00000000)  returns 0x00 (0000ms, 0591ms total)
T1998 001:364 JLINK_WriteReg(R12, 0x00000000)  returns 0x00 (0000ms, 0591ms total)
T1998 001:364 JLINK_WriteReg(R13 (SP), 0x20001000)  returns 0x00 (0000ms, 0591ms total)
T1998 001:364 JLINK_WriteReg(R14, 0x20000001)  returns 0x00 (0000ms, 0591ms total)
T1998 001:364 JLINK_WriteReg(R15 (PC), 0x20000082)  returns 0x00 (0000ms, 0591ms total)
T1998 001:364 JLINK_WriteReg(XPSR, 0x01000000)  returns 0x00 (0000ms, 0591ms total)
T1998 001:364 JLINK_WriteReg(MSP, 0x20001000)  returns 0x00 (0000ms, 0591ms total)
T1998 001:364 JLINK_WriteReg(PSP, 0x20001000)  returns 0x00 (0000ms, 0591ms total)
T1998 001:364 JLINK_WriteReg(CFBP, 0x00000000)  returns 0x00 (0000ms, 0591ms total)
T1998 001:364 JLINK_SetBPEx(Addr = 0x20000000, Type = 0xFFFFFFF2)  returns 0x00000004 (0000ms, 0591ms total)
T1998 001:364 JLINK_Go() (0001ms, 0592ms total)
T1998 001:365 JLINK_IsHalted() -- CPU_ReadMem(2 bytes @ 0x20000000)  returns TRUE (0003ms, 0595ms total)
T1998 001:368 JLINK_ReadReg(R15 (PC))  returns 0x20000000 (0000ms, 0592ms total)
T1998 001:368 JLINK_ClrBPEx(BPHandle = 0x00000004)  returns 0x00 (0000ms, 0592ms total)
T1998 001:368 JLINK_ReadReg(R0)  returns 0x00000000 (0000ms, 0592ms total)
T1998 001:424 JLINK_WriteMem(0x20000000, 0x0180 Bytes, ...) - Data: 00 BE 0A E0 0D 78 2D 06 68 40 08 24 40 00 00 D3 ... -- CPU_WriteMem(384 bytes @ 0x20000000)  returns 0x180 (0003ms, 0595ms total)
T1998 001:427 JLINK_WriteReg(R0, 0x08000000)  returns 0x00 (0000ms, 0595ms total)
T1998 001:427 JLINK_WriteReg(R1, 0x0A037A00)  returns 0x00 (0000ms, 0595ms total)
T1998 001:427 JLINK_WriteReg(R2, 0x00000002)  returns 0x00 (0000ms, 0595ms total)
T1998 001:427 JLINK_WriteReg(R3, 0x00000000)  returns 0x00 (0000ms, 0595ms total)
T1998 001:427 JLINK_WriteReg(R4, 0x00000000)  returns 0x00 (0000ms, 0595ms total)
T1998 001:427 JLINK_WriteReg(R5, 0x00000000)  returns 0x00 (0000ms, 0595ms total)
T1998 001:427 JLINK_WriteReg(R6, 0x00000000)  returns 0x00 (0000ms, 0595ms total)
T1998 001:427 JLINK_WriteReg(R7, 0x00000000)  returns 0x00 (0000ms, 0595ms total)
T1998 001:427 JLINK_WriteReg(R8, 0x00000000)  returns 0x00 (0000ms, 0595ms total)
T1998 001:427 JLINK_WriteReg(R9, 0x2000017C)  returns 0x00 (0000ms, 0595ms total)
T1998 001:427 JLINK_WriteReg(R10, 0x00000000)  returns 0x00 (0000ms, 0595ms total)
T1998 001:427 JLINK_WriteReg(R11, 0x00000000)  returns 0x00 (0000ms, 0595ms total)
T1998 001:427 JLINK_WriteReg(R12, 0x00000000)  returns 0x00 (0000ms, 0595ms total)
T1998 001:427 JLINK_WriteReg(R13 (SP), 0x20001000)  returns 0x00 (0000ms, 0595ms total)
T1998 001:427 JLINK_WriteReg(R14, 0x20000001)  returns 0x00 (0000ms, 0595ms total)
T1998 001:427 JLINK_WriteReg(R15 (PC), 0x20000054)  returns 0x00 (0000ms, 0595ms total)
T1998 001:427 JLINK_WriteReg(XPSR, 0x01000000)  returns 0x00 (0000ms, 0595ms total)
T1998 001:427 JLINK_WriteReg(MSP, 0x20001000)  returns 0x00 (0000ms, 0595ms total)
T1998 001:427 JLINK_WriteReg(PSP, 0x20001000)  returns 0x00 (0000ms, 0595ms total)
T1998 001:427 JLINK_WriteReg(CFBP, 0x00000000)  returns 0x00 (0000ms, 0595ms total)
T1998 001:427 JLINK_SetBPEx(Addr = 0x20000000, Type = 0xFFFFFFF2) -- CPU_ReadMem(2 bytes @ 0x20000000)  returns 0x00000005 (0001ms, 0596ms total)
T1998 001:428 JLINK_Go() -- CPU_WriteMem(2 bytes @ 0x20000000) (0001ms, 0597ms total)
T1998 001:429 JLINK_IsHalted() -- CPU_ReadMem(2 bytes @ 0x20000000)  returns TRUE (0002ms, 0599ms total)
T1998 001:431 JLINK_ReadReg(R15 (PC))  returns 0x20000000 (0000ms, 0597ms total)
T1998 001:431 JLINK_ClrBPEx(BPHandle = 0x00000005)  returns 0x00 (0000ms, 0597ms total)
T1998 001:431 JLINK_ReadReg(R0)  returns 0x00000000 (0000ms, 0597ms total)
T1998 001:432 JLINK_WriteMem(0x20000180, 0x0400 Bytes, ...) - Data: 88 06 00 20 39 05 00 08 E9 02 00 08 EB 02 00 08 ... -- CPU_WriteMem(1024 bytes @ 0x20000180)  returns 0x400 (0005ms, 0602ms total)
T1998 001:437 JLINK_WriteReg(R0, 0x08000000)  returns 0x00 (0000ms, 0602ms total)
T1998 001:437 JLINK_WriteReg(R1, 0x00000400)  returns 0x00 (0000ms, 0602ms total)
T1998 001:437 JLINK_WriteReg(R2, 0x20000180)  returns 0x00 (0000ms, 0602ms total)
T1998 001:437 JLINK_WriteReg(R3, 0x00000000)  returns 0x00 (0000ms, 0602ms total)
T1998 001:437 JLINK_WriteReg(R4, 0x00000000)  returns 0x00 (0000ms, 0602ms total)
T1998 001:437 JLINK_WriteReg(R5, 0x00000000)  returns 0x00 (0000ms, 0602ms total)
T1998 001:437 JLINK_WriteReg(R6, 0x00000000)  returns 0x00 (0000ms, 0602ms total)
T1998 001:437 JLINK_WriteReg(R7, 0x00000000)  returns 0x00 (0000ms, 0602ms total)
T1998 001:437 JLINK_WriteReg(R8, 0x00000000)  returns 0x00 (0000ms, 0602ms total)
T1998 001:437 JLINK_WriteReg(R9, 0x2000017C)  returns 0x00 (0000ms, 0602ms total)
T1998 001:437 JLINK_WriteReg(R10, 0x00000000)  returns 0x00 (0000ms, 0602ms total)
T1998 001:437 JLINK_WriteReg(R11, 0x00000000)  returns 0x00 (0000ms, 0602ms total)
T1998 001:437 JLINK_WriteReg(R12, 0x00000000)  returns 0x00 (0000ms, 0602ms total)
T1998 001:437 JLINK_WriteReg(R13 (SP), 0x20001000)  returns 0x00 (0000ms, 0602ms total)
T1998 001:437 JLINK_WriteReg(R14, 0x20000001)  returns 0x00 (0000ms, 0602ms total)
T1998 001:437 JLINK_WriteReg(R15 (PC), 0x20000108)  returns 0x00 (0000ms, 0602ms total)
T1998 001:437 JLINK_WriteReg(XPSR, 0x01000000)  returns 0x00 (0000ms, 0602ms total)
T1998 001:437 JLINK_WriteReg(MSP, 0x20001000)  returns 0x00 (0000ms, 0602ms total)
T1998 001:437 JLINK_WriteReg(PSP, 0x20001000)  returns 0x00 (0000ms, 0602ms total)
T1998 001:437 JLINK_WriteReg(CFBP, 0x00000000)  returns 0x00 (0000ms, 0602ms total)
T1998 001:437 JLINK_SetBPEx(Addr = 0x20000000, Type = 0xFFFFFFF2)  returns 0x00000006 (0000ms, 0602ms total)
T1998 001:437 JLINK_Go() (0001ms, 0603ms total)
T1998 001:438 JLINK_IsHalted()  returns FALSE (0000ms, 0603ms total)
T1998 001:524 JLINK_IsHalted() -- CPU_ReadMem(2 bytes @ 0x20000000)  returns TRUE (0003ms, 0606ms total)
T1998 001:527 JLINK_ReadReg(R15 (PC))  returns 0x20000000 (0000ms, 0603ms total)
T1998 001:527 JLINK_ClrBPEx(BPHandle = 0x00000006)  returns 0x00 (0000ms, 0603ms total)
T1998 001:527 JLINK_ReadReg(R0)  returns 0x00000000 (0000ms, 0603ms total)
T1998 001:527 JLINK_WriteMem(0x20000180, 0x0400 Bytes, ...) - Data: F8 D1 0C BD 10 B5 45 48 00 68 40 F4 70 00 43 49 ... -- CPU_WriteMem(1024 bytes @ 0x20000180)  returns 0x400 (0006ms, 0609ms total)
T1998 001:533 JLINK_WriteReg(R0, 0x08000400)  returns 0x00 (0000ms, 0609ms total)
T1998 001:533 JLINK_WriteReg(R1, 0x00000400)  returns 0x00 (0000ms, 0609ms total)
T1998 001:533 JLINK_WriteReg(R2, 0x20000180)  returns 0x00 (0000ms, 0609ms total)
T1998 001:533 JLINK_WriteReg(R3, 0x00000000)  returns 0x00 (0000ms, 0609ms total)
T1998 001:533 JLINK_WriteReg(R4, 0x00000000)  returns 0x00 (0000ms, 0609ms total)
T1998 001:533 JLINK_WriteReg(R5, 0x00000000)  returns 0x00 (0000ms, 0609ms total)
T1998 001:533 JLINK_WriteReg(R6, 0x00000000)  returns 0x00 (0000ms, 0609ms total)
T1998 001:533 JLINK_WriteReg(R7, 0x00000000)  returns 0x00 (0000ms, 0609ms total)
T1998 001:533 JLINK_WriteReg(R8, 0x00000000)  returns 0x00 (0000ms, 0609ms total)
T1998 001:533 JLINK_WriteReg(R9, 0x2000017C)  returns 0x00 (0000ms, 0609ms total)
T1998 001:533 JLINK_WriteReg(R10, 0x00000000)  returns 0x00 (0000ms, 0609ms total)
T1998 001:533 JLINK_WriteReg(R11, 0x00000000)  returns 0x00 (0000ms, 0609ms total)
T1998 001:533 JLINK_WriteReg(R12, 0x00000000)  returns 0x00 (0000ms, 0609ms total)
T1998 001:533 JLINK_WriteReg(R13 (SP), 0x20001000)  returns 0x00 (0000ms, 0609ms total)
T1998 001:533 JLINK_WriteReg(R14, 0x20000001)  returns 0x00 (0000ms, 0609ms total)
T1998 001:533 JLINK_WriteReg(R15 (PC), 0x20000108)  returns 0x00 (0000ms, 0609ms total)
T1998 001:533 JLINK_WriteReg(XPSR, 0x01000000)  returns 0x00 (0000ms, 0609ms total)
T1998 001:533 JLINK_WriteReg(MSP, 0x20001000)  returns 0x00 (0000ms, 0609ms total)
T1998 001:533 JLINK_WriteReg(PSP, 0x20001000)  returns 0x00 (0000ms, 0609ms total)
T1998 001:533 JLINK_WriteReg(CFBP, 0x00000000)  returns 0x00 (0000ms, 0609ms total)
T1998 001:533 JLINK_SetBPEx(Addr = 0x20000000, Type = 0xFFFFFFF2)  returns 0x00000007 (0000ms, 0609ms total)
T1998 001:533 JLINK_Go() (0001ms, 0610ms total)
T1998 001:534 JLINK_IsHalted()  returns FALSE (0000ms, 0610ms total)
T1998 001:624 JLINK_IsHalted() -- CPU_ReadMem(2 bytes @ 0x20000000)  returns TRUE (0002ms, 0612ms total)
T1998 001:626 JLINK_ReadReg(R15 (PC))  returns 0x20000000 (0000ms, 0610ms total)
T1998 001:626 JLINK_ClrBPEx(BPHandle = 0x00000007)  returns 0x00 (0000ms, 0610ms total)
T1998 001:626 JLINK_ReadReg(R0)  returns 0x00000000 (0000ms, 0610ms total)
T1998 001:628 JLINK_WriteMem(0x20000180, 0x0400 Bytes, ...) - Data: F8 00 08 60 28 46 70 BD 30 B5 02 46 00 25 09 24 ... -- CPU_WriteMem(1024 bytes @ 0x20000180)  returns 0x400 (0005ms, 0615ms total)
T1998 001:633 JLINK_WriteReg(R0, 0x08000800)  returns 0x00 (0000ms, 0615ms total)
T1998 001:633 JLINK_WriteReg(R1, 0x00000400)  returns 0x00 (0000ms, 0615ms total)
T1998 001:633 JLINK_WriteReg(R2, 0x20000180)  returns 0x00 (0000ms, 0615ms total)
T1998 001:633 JLINK_WriteReg(R3, 0x00000000)  returns 0x00 (0000ms, 0615ms total)
T1998 001:633 JLINK_WriteReg(R4, 0x00000000)  returns 0x00 (0000ms, 0615ms total)
T1998 001:633 JLINK_WriteReg(R5, 0x00000000)  returns 0x00 (0000ms, 0615ms total)
T1998 001:633 JLINK_WriteReg(R6, 0x00000000)  returns 0x00 (0000ms, 0615ms total)
T1998 001:633 JLINK_WriteReg(R7, 0x00000000)  returns 0x00 (0000ms, 0615ms total)
T1998 001:633 JLINK_WriteReg(R8, 0x00000000)  returns 0x00 (0000ms, 0615ms total)
T1998 001:633 JLINK_WriteReg(R9, 0x2000017C)  returns 0x00 (0000ms, 0615ms total)
T1998 001:633 JLINK_WriteReg(R10, 0x00000000)  returns 0x00 (0000ms, 0615ms total)
T1998 001:633 JLINK_WriteReg(R11, 0x00000000)  returns 0x00 (0000ms, 0615ms total)
T1998 001:633 JLINK_WriteReg(R12, 0x00000000)  returns 0x00 (0000ms, 0615ms total)
T1998 001:633 JLINK_WriteReg(R13 (SP), 0x20001000)  returns 0x00 (0000ms, 0615ms total)
T1998 001:633 JLINK_WriteReg(R14, 0x20000001)  returns 0x00 (0000ms, 0615ms total)
T1998 001:633 JLINK_WriteReg(R15 (PC), 0x20000108)  returns 0x00 (0000ms, 0615ms total)
T1998 001:633 JLINK_WriteReg(XPSR, 0x01000000)  returns 0x00 (0000ms, 0615ms total)
T1998 001:633 JLINK_WriteReg(MSP, 0x20001000)  returns 0x00 (0000ms, 0615ms total)
T1998 001:633 JLINK_WriteReg(PSP, 0x20001000)  returns 0x00 (0000ms, 0615ms total)
T1998 001:633 JLINK_WriteReg(CFBP, 0x00000000)  returns 0x00 (0000ms, 0615ms total)
T1998 001:633 JLINK_SetBPEx(Addr = 0x20000000, Type = 0xFFFFFFF2)  returns 0x00000008 (0000ms, 0615ms total)
T1998 001:633 JLINK_Go() (0001ms, 0616ms total)
T1998 001:634 JLINK_IsHalted()  returns FALSE (0000ms, 0616ms total)
T1998 001:733 JLINK_IsHalted() -- CPU_ReadMem(2 bytes @ 0x20000000)  returns TRUE (0002ms, 0618ms total)
T1998 001:735 JLINK_ReadReg(R15 (PC))  returns 0x20000000 (0000ms, 0616ms total)
T1998 001:735 JLINK_ClrBPEx(BPHandle = 0x00000008)  returns 0x00 (0000ms, 0616ms total)
T1998 001:735 JLINK_ReadReg(R0)  returns 0x00000000 (0000ms, 0616ms total)
T1998 001:735 JLINK_WriteMem(0x20000180, 0x0400 Bytes, ...) - Data: 37 49 09 1D 08 70 F0 BD 35 49 09 1D 09 78 21 F0 ... -- CPU_WriteMem(1024 bytes @ 0x20000180)  returns 0x400 (0005ms, 0621ms total)
T1998 001:740 JLINK_WriteReg(R0, 0x08000C00)  returns 0x00 (0000ms, 0621ms total)
T1998 001:740 JLINK_WriteReg(R1, 0x00000400)  returns 0x00 (0000ms, 0621ms total)
T1998 001:740 JLINK_WriteReg(R2, 0x20000180)  returns 0x00 (0000ms, 0621ms total)
T1998 001:741 JLINK_WriteReg(R3, 0x00000000)  returns 0x00 (0000ms, 0622ms total)
T1998 001:741 JLINK_WriteReg(R4, 0x00000000)  returns 0x00 (0000ms, 0622ms total)
T1998 001:741 JLINK_WriteReg(R5, 0x00000000)  returns 0x00 (0000ms, 0622ms total)
T1998 001:741 JLINK_WriteReg(R6, 0x00000000)  returns 0x00 (0000ms, 0622ms total)
T1998 001:741 JLINK_WriteReg(R7, 0x00000000)  returns 0x00 (0000ms, 0622ms total)
T1998 001:741 JLINK_WriteReg(R8, 0x00000000)  returns 0x00 (0000ms, 0622ms total)
T1998 001:741 JLINK_WriteReg(R9, 0x2000017C)  returns 0x00 (0000ms, 0622ms total)
T1998 001:741 JLINK_WriteReg(R10, 0x00000000)  returns 0x00 (0000ms, 0622ms total)
T1998 001:741 JLINK_WriteReg(R11, 0x00000000)  returns 0x00 (0000ms, 0622ms total)
T1998 001:741 JLINK_WriteReg(R12, 0x00000000)  returns 0x00 (0000ms, 0622ms total)
T1998 001:741 JLINK_WriteReg(R13 (SP), 0x20001000)  returns 0x00 (0000ms, 0622ms total)
T1998 001:741 JLINK_WriteReg(R14, 0x20000001)  returns 0x00 (0000ms, 0622ms total)
T1998 001:741 JLINK_WriteReg(R15 (PC), 0x20000108)  returns 0x00 (0000ms, 0622ms total)
T1998 001:741 JLINK_WriteReg(XPSR, 0x01000000)  returns 0x00 (0000ms, 0622ms total)
T1998 001:741 JLINK_WriteReg(MSP, 0x20001000)  returns 0x00 (0000ms, 0622ms total)
T1998 001:741 JLINK_WriteReg(PSP, 0x20001000)  returns 0x00 (0000ms, 0622ms total)
T1998 001:741 JLINK_WriteReg(CFBP, 0x00000000)  returns 0x00 (0000ms, 0622ms total)
T1998 001:741 JLINK_SetBPEx(Addr = 0x20000000, Type = 0xFFFFFFF2)  returns 0x00000009 (0000ms, 0622ms total)
T1998 001:741 JLINK_Go() (0001ms, 0623ms total)
T1998 001:742 JLINK_IsHalted()  returns FALSE (0000ms, 0623ms total)
T1998 001:762 JLINK_IsHalted() -- CPU_ReadMem(2 bytes @ 0x20000000)  returns TRUE (0002ms, 0625ms total)
T1998 001:764 JLINK_ReadReg(R15 (PC))  returns 0x20000000 (0000ms, 0623ms total)
T1998 001:764 JLINK_ClrBPEx(BPHandle = 0x00000009)  returns 0x00 (0000ms, 0623ms total)
T1998 001:764 JLINK_ReadReg(R0)  returns 0x00000000 (0000ms, 0623ms total)
T1998 001:765 JLINK_WriteMem(0x20000180, 0x0400 Bytes, ...) - Data: 02 E0 D9 4C 74 34 23 68 01 F0 1F 02 01 24 94 40 ... -- CPU_WriteMem(1024 bytes @ 0x20000180)  returns 0x400 (0005ms, 0628ms total)
T1998 001:770 JLINK_WriteReg(R0, 0x08001000)  returns 0x00 (0000ms, 0628ms total)
T1998 001:770 JLINK_WriteReg(R1, 0x00000400)  returns 0x00 (0000ms, 0628ms total)
T1998 001:770 JLINK_WriteReg(R2, 0x20000180)  returns 0x00 (0000ms, 0628ms total)
T1998 001:770 JLINK_WriteReg(R3, 0x00000000)  returns 0x00 (0000ms, 0628ms total)
T1998 001:770 JLINK_WriteReg(R4, 0x00000000)  returns 0x00 (0000ms, 0628ms total)
T1998 001:770 JLINK_WriteReg(R5, 0x00000000)  returns 0x00 (0000ms, 0628ms total)
T1998 001:770 JLINK_WriteReg(R6, 0x00000000)  returns 0x00 (0000ms, 0628ms total)
T1998 001:770 JLINK_WriteReg(R7, 0x00000000)  returns 0x00 (0000ms, 0628ms total)
T1998 001:770 JLINK_WriteReg(R8, 0x00000000)  returns 0x00 (0000ms, 0628ms total)
T1998 001:770 JLINK_WriteReg(R9, 0x2000017C)  returns 0x00 (0000ms, 0628ms total)
T1998 001:770 JLINK_WriteReg(R10, 0x00000000)  returns 0x00 (0000ms, 0628ms total)
T1998 001:770 JLINK_WriteReg(R11, 0x00000000)  returns 0x00 (0000ms, 0628ms total)
T1998 001:770 JLINK_WriteReg(R12, 0x00000000)  returns 0x00 (0000ms, 0628ms total)
T1998 001:770 JLINK_WriteReg(R13 (SP), 0x20001000)  returns 0x00 (0000ms, 0628ms total)
T1998 001:770 JLINK_WriteReg(R14, 0x20000001)  returns 0x00 (0000ms, 0628ms total)
T1998 001:770 JLINK_WriteReg(R15 (PC), 0x20000108)  returns 0x00 (0000ms, 0628ms total)
T1998 001:770 JLINK_WriteReg(XPSR, 0x01000000)  returns 0x00 (0000ms, 0628ms total)
T1998 001:770 JLINK_WriteReg(MSP, 0x20001000)  returns 0x00 (0000ms, 0628ms total)
T1998 001:770 JLINK_WriteReg(PSP, 0x20001000)  returns 0x00 (0000ms, 0628ms total)
T1998 001:770 JLINK_WriteReg(CFBP, 0x00000000)  returns 0x00 (0000ms, 0628ms total)
T1998 001:770 JLINK_SetBPEx(Addr = 0x20000000, Type = 0xFFFFFFF2)  returns 0x0000000A (0000ms, 0628ms total)
T1998 001:770 JLINK_Go() (0001ms, 0629ms total)
T1998 001:771 JLINK_IsHalted()  returns FALSE (0000ms, 0629ms total)
T1998 001:775 JLINK_IsHalted()  returns FALSE (0000ms, 0629ms total)
T1998 001:777 JLINK_IsHalted() -- CPU_ReadMem(2 bytes @ 0x20000000)  returns TRUE (0002ms, 0631ms total)
T1998 001:779 JLINK_ReadReg(R15 (PC))  returns 0x20000000 (0000ms, 0629ms total)
T1998 001:779 JLINK_ClrBPEx(BPHandle = 0x0000000A)  returns 0x00 (0000ms, 0629ms total)
T1998 001:779 JLINK_ReadReg(R0)  returns 0x00000000 (0000ms, 0629ms total)
T1998 001:779 JLINK_WriteMem(0x20000180, 0x0400 Bytes, ...) - Data: 82 43 75 4B 10 33 1A 60 70 47 39 B1 72 4A 24 3A ... -- CPU_WriteMem(1024 bytes @ 0x20000180)  returns 0x400 (0005ms, 0634ms total)
T1998 001:784 JLINK_WriteReg(R0, 0x08001400)  returns 0x00 (0000ms, 0634ms total)
T1998 001:784 JLINK_WriteReg(R1, 0x00000400)  returns 0x00 (0000ms, 0634ms total)
T1998 001:784 JLINK_WriteReg(R2, 0x20000180)  returns 0x00 (0000ms, 0634ms total)
T1998 001:784 JLINK_WriteReg(R3, 0x00000000)  returns 0x00 (0000ms, 0634ms total)
T1998 001:784 JLINK_WriteReg(R4, 0x00000000)  returns 0x00 (0000ms, 0634ms total)
T1998 001:784 JLINK_WriteReg(R5, 0x00000000)  returns 0x00 (0000ms, 0634ms total)
T1998 001:784 JLINK_WriteReg(R6, 0x00000000)  returns 0x00 (0000ms, 0634ms total)
T1998 001:784 JLINK_WriteReg(R7, 0x00000000)  returns 0x00 (0001ms, 0635ms total)
T1998 001:785 JLINK_WriteReg(R8, 0x00000000)  returns 0x00 (0000ms, 0635ms total)
T1998 001:785 JLINK_WriteReg(R9, 0x2000017C)  returns 0x00 (0000ms, 0635ms total)
T1998 001:785 JLINK_WriteReg(R10, 0x00000000)  returns 0x00 (0000ms, 0635ms total)
T1998 001:785 JLINK_WriteReg(R11, 0x00000000)  returns 0x00 (0000ms, 0635ms total)
T1998 001:785 JLINK_WriteReg(R12, 0x00000000)  returns 0x00 (0000ms, 0635ms total)
T1998 001:785 JLINK_WriteReg(R13 (SP), 0x20001000)  returns 0x00 (0000ms, 0635ms total)
T1998 001:785 JLINK_WriteReg(R14, 0x20000001)  returns 0x00 (0000ms, 0635ms total)
T1998 001:785 JLINK_WriteReg(R15 (PC), 0x20000108)  returns 0x00 (0000ms, 0635ms total)
T1998 001:785 JLINK_WriteReg(XPSR, 0x01000000)  returns 0x00 (0000ms, 0635ms total)
T1998 001:785 JLINK_WriteReg(MSP, 0x20001000)  returns 0x00 (0000ms, 0635ms total)
T1998 001:785 JLINK_WriteReg(PSP, 0x20001000)  returns 0x00 (0000ms, 0635ms total)
T1998 001:785 JLINK_WriteReg(CFBP, 0x00000000)  returns 0x00 (0000ms, 0635ms total)
T1998 001:785 JLINK_SetBPEx(Addr = 0x20000000, Type = 0xFFFFFFF2)  returns 0x0000000B (0000ms, 0635ms total)
T1998 001:785 JLINK_Go() (0001ms, 0636ms total)
T1998 001:786 JLINK_IsHalted()  returns FALSE (0000ms, 0636ms total)
T1998 001:790 JLINK_IsHalted()  returns FALSE (0000ms, 0636ms total)
T1998 001:792 JLINK_IsHalted() -- CPU_ReadMem(2 bytes @ 0x20000000)  returns TRUE (0002ms, 0638ms total)
T1998 001:794 JLINK_ReadReg(R15 (PC))  returns 0x20000000 (0000ms, 0636ms total)
T1998 001:794 JLINK_ClrBPEx(BPHandle = 0x0000000B)  returns 0x00 (0000ms, 0636ms total)
T1998 001:794 JLINK_ReadReg(R0)  returns 0x00000000 (0000ms, 0636ms total)
T1998 001:795 JLINK_WriteMem(0x20000180, 0x0400 Bytes, ...) - Data: 82 82 04 E0 82 8A 4F F2 FF 73 1A 40 82 82 70 47 ... -- CPU_WriteMem(1024 bytes @ 0x20000180)  returns 0x400 (0005ms, 0641ms total)
T1998 001:800 JLINK_WriteReg(R0, 0x08001800)  returns 0x00 (0000ms, 0641ms total)
T1998 001:800 JLINK_WriteReg(R1, 0x00000400)  returns 0x00 (0000ms, 0641ms total)
T1998 001:800 JLINK_WriteReg(R2, 0x20000180)  returns 0x00 (0000ms, 0641ms total)
T1998 001:800 JLINK_WriteReg(R3, 0x00000000)  returns 0x00 (0000ms, 0641ms total)
T1998 001:800 JLINK_WriteReg(R4, 0x00000000)  returns 0x00 (0000ms, 0641ms total)
T1998 001:800 JLINK_WriteReg(R5, 0x00000000)  returns 0x00 (0000ms, 0641ms total)
T1998 001:800 JLINK_WriteReg(R6, 0x00000000)  returns 0x00 (0000ms, 0641ms total)
T1998 001:800 JLINK_WriteReg(R7, 0x00000000)  returns 0x00 (0000ms, 0641ms total)
T1998 001:800 JLINK_WriteReg(R8, 0x00000000)  returns 0x00 (0000ms, 0641ms total)
T1998 001:800 JLINK_WriteReg(R9, 0x2000017C)  returns 0x00 (0000ms, 0641ms total)
T1998 001:800 JLINK_WriteReg(R10, 0x00000000)  returns 0x00 (0000ms, 0641ms total)
T1998 001:800 JLINK_WriteReg(R11, 0x00000000)  returns 0x00 (0000ms, 0641ms total)
T1998 001:800 JLINK_WriteReg(R12, 0x00000000)  returns 0x00 (0000ms, 0641ms total)
T1998 001:800 JLINK_WriteReg(R13 (SP), 0x20001000)  returns 0x00 (0000ms, 0641ms total)
T1998 001:800 JLINK_WriteReg(R14, 0x20000001)  returns 0x00 (0000ms, 0641ms total)
T1998 001:800 JLINK_WriteReg(R15 (PC), 0x20000108)  returns 0x00 (0000ms, 0641ms total)
T1998 001:800 JLINK_WriteReg(XPSR, 0x01000000)  returns 0x00 (0000ms, 0641ms total)
T1998 001:800 JLINK_WriteReg(MSP, 0x20001000)  returns 0x00 (0000ms, 0641ms total)
T1998 001:800 JLINK_WriteReg(PSP, 0x20001000)  returns 0x00 (0000ms, 0641ms total)
T1998 001:800 JLINK_WriteReg(CFBP, 0x00000000)  returns 0x00 (0000ms, 0641ms total)
T1998 001:800 JLINK_SetBPEx(Addr = 0x20000000, Type = 0xFFFFFFF2)  returns 0x0000000C (0000ms, 0641ms total)
T1998 001:800 JLINK_Go() (0001ms, 0642ms total)
T1998 001:801 JLINK_IsHalted()  returns FALSE (0000ms, 0642ms total)
T1998 001:805 JLINK_IsHalted()  returns FALSE (0000ms, 0642ms total)
T1998 001:807 JLINK_IsHalted() -- CPU_ReadMem(2 bytes @ 0x20000000)  returns TRUE (0002ms, 0644ms total)
T1998 001:809 JLINK_ReadReg(R15 (PC))  returns 0x20000000 (0000ms, 0642ms total)
T1998 001:809 JLINK_ClrBPEx(BPHandle = 0x0000000C)  returns 0x00 (0000ms, 0642ms total)
T1998 001:809 JLINK_ReadReg(R0)  returns 0x00000000 (0000ms, 0642ms total)
T1998 001:810 JLINK_WriteMem(0x20000180, 0x0400 Bytes, ...) - Data: 07 00 01 A8 FE F7 BD FC 08 B0 10 BD 10 B5 88 B0 ... -- CPU_WriteMem(1024 bytes @ 0x20000180)  returns 0x400 (0005ms, 0647ms total)
T1998 001:815 JLINK_WriteReg(R0, 0x08001C00)  returns 0x00 (0000ms, 0647ms total)
T1998 001:815 JLINK_WriteReg(R1, 0x00000400)  returns 0x00 (0000ms, 0647ms total)
T1998 001:815 JLINK_WriteReg(R2, 0x20000180)  returns 0x00 (0000ms, 0647ms total)
T1998 001:815 JLINK_WriteReg(R3, 0x00000000)  returns 0x00 (0000ms, 0647ms total)
T1998 001:815 JLINK_WriteReg(R4, 0x00000000)  returns 0x00 (0000ms, 0647ms total)
T1998 001:815 JLINK_WriteReg(R5, 0x00000000)  returns 0x00 (0000ms, 0647ms total)
T1998 001:815 JLINK_WriteReg(R6, 0x00000000)  returns 0x00 (0000ms, 0647ms total)
T1998 001:815 JLINK_WriteReg(R7, 0x00000000)  returns 0x00 (0000ms, 0647ms total)
T1998 001:815 JLINK_WriteReg(R8, 0x00000000)  returns 0x00 (0000ms, 0647ms total)
T1998 001:815 JLINK_WriteReg(R9, 0x2000017C)  returns 0x00 (0000ms, 0647ms total)
T1998 001:815 JLINK_WriteReg(R10, 0x00000000)  returns 0x00 (0000ms, 0647ms total)
T1998 001:815 JLINK_WriteReg(R11, 0x00000000)  returns 0x00 (0000ms, 0647ms total)
T1998 001:815 JLINK_WriteReg(R12, 0x00000000)  returns 0x00 (0000ms, 0647ms total)
T1998 001:815 JLINK_WriteReg(R13 (SP), 0x20001000)  returns 0x00 (0000ms, 0647ms total)
T1998 001:815 JLINK_WriteReg(R14, 0x20000001)  returns 0x00 (0000ms, 0647ms total)
T1998 001:815 JLINK_WriteReg(R15 (PC), 0x20000108)  returns 0x00 (0000ms, 0647ms total)
T1998 001:815 JLINK_WriteReg(XPSR, 0x01000000)  returns 0x00 (0000ms, 0647ms total)
T1998 001:815 JLINK_WriteReg(MSP, 0x20001000)  returns 0x00 (0000ms, 0647ms total)
T1998 001:815 JLINK_WriteReg(PSP, 0x20001000)  returns 0x00 (0000ms, 0647ms total)
T1998 001:815 JLINK_WriteReg(CFBP, 0x00000000)  returns 0x00 (0000ms, 0647ms total)
T1998 001:815 JLINK_SetBPEx(Addr = 0x20000000, Type = 0xFFFFFFF2)  returns 0x0000000D (0000ms, 0647ms total)
T1998 001:815 JLINK_Go() (0001ms, 0648ms total)
T1998 001:816 JLINK_IsHalted()  returns FALSE (0000ms, 0648ms total)
T1998 001:820 JLINK_IsHalted()  returns FALSE (0000ms, 0648ms total)
T1998 001:822 JLINK_IsHalted() -- CPU_ReadMem(2 bytes @ 0x20000000)  returns TRUE (0002ms, 0650ms total)
T1998 001:824 JLINK_ReadReg(R15 (PC))  returns 0x20000000 (0000ms, 0648ms total)
T1998 001:824 JLINK_ClrBPEx(BPHandle = 0x0000000D)  returns 0x00 (0000ms, 0648ms total)
T1998 001:824 JLINK_ReadReg(R0)  returns 0x00000000 (0000ms, 0648ms total)
T1998 001:824 JLINK_WriteMem(0x20000180, 0x0400 Bytes, ...) - Data: A8 61 28 6A 18 44 28 62 28 46 FF F7 AA FF 04 E0 ... -- CPU_WriteMem(1024 bytes @ 0x20000180)  returns 0x400 (0006ms, 0654ms total)
T1998 001:830 JLINK_WriteReg(R0, 0x08002000)  returns 0x00 (0000ms, 0654ms total)
T1998 001:830 JLINK_WriteReg(R1, 0x00000400)  returns 0x00 (0000ms, 0654ms total)
T1998 001:830 JLINK_WriteReg(R2, 0x20000180)  returns 0x00 (0000ms, 0654ms total)
T1998 001:830 JLINK_WriteReg(R3, 0x00000000)  returns 0x00 (0000ms, 0654ms total)
T1998 001:830 JLINK_WriteReg(R4, 0x00000000)  returns 0x00 (0000ms, 0654ms total)
T1998 001:830 JLINK_WriteReg(R5, 0x00000000)  returns 0x00 (0000ms, 0654ms total)
T1998 001:830 JLINK_WriteReg(R6, 0x00000000)  returns 0x00 (0000ms, 0654ms total)
T1998 001:830 JLINK_WriteReg(R7, 0x00000000)  returns 0x00 (0000ms, 0654ms total)
T1998 001:830 JLINK_WriteReg(R8, 0x00000000)  returns 0x00 (0000ms, 0654ms total)
T1998 001:830 JLINK_WriteReg(R9, 0x2000017C)  returns 0x00 (0000ms, 0654ms total)
T1998 001:830 JLINK_WriteReg(R10, 0x00000000)  returns 0x00 (0000ms, 0654ms total)
T1998 001:830 JLINK_WriteReg(R11, 0x00000000)  returns 0x00 (0000ms, 0654ms total)
T1998 001:830 JLINK_WriteReg(R12, 0x00000000)  returns 0x00 (0000ms, 0654ms total)
T1998 001:830 JLINK_WriteReg(R13 (SP), 0x20001000)  returns 0x00 (0000ms, 0654ms total)
T1998 001:830 JLINK_WriteReg(R14, 0x20000001)  returns 0x00 (0000ms, 0654ms total)
T1998 001:830 JLINK_WriteReg(R15 (PC), 0x20000108)  returns 0x00 (0000ms, 0654ms total)
T1998 001:830 JLINK_WriteReg(XPSR, 0x01000000)  returns 0x00 (0000ms, 0654ms total)
T1998 001:830 JLINK_WriteReg(MSP, 0x20001000)  returns 0x00 (0000ms, 0654ms total)
T1998 001:830 JLINK_WriteReg(PSP, 0x20001000)  returns 0x00 (0000ms, 0654ms total)
T1998 001:830 JLINK_WriteReg(CFBP, 0x00000000)  returns 0x00 (0000ms, 0654ms total)
T1998 001:830 JLINK_SetBPEx(Addr = 0x20000000, Type = 0xFFFFFFF2)  returns 0x0000000E (0000ms, 0654ms total)
T1998 001:830 JLINK_Go() (0001ms, 0655ms total)
T1998 001:831 JLINK_IsHalted()  returns FALSE (0000ms, 0655ms total)
T1998 001:834 JLINK_IsHalted()  returns FALSE (0000ms, 0655ms total)
T1998 001:836 JLINK_IsHalted() -- CPU_ReadMem(2 bytes @ 0x20000000)  returns TRUE (0002ms, 0657ms total)
T1998 001:838 JLINK_ReadReg(R15 (PC))  returns 0x20000000 (0000ms, 0655ms total)
T1998 001:838 JLINK_ClrBPEx(BPHandle = 0x0000000E)  returns 0x00 (0000ms, 0655ms total)
T1998 001:838 JLINK_ReadReg(R0)  returns 0x00000000 (0000ms, 0655ms total)
T1998 001:838 JLINK_WriteMem(0x20000180, 0x0400 Bytes, ...) - Data: 20 46 E1 68 88 47 05 46 01 F0 D9 F9 00 28 EE D1 ... -- CPU_WriteMem(1024 bytes @ 0x20000180)  returns 0x400 (0005ms, 0660ms total)
T1998 001:843 JLINK_WriteReg(R0, 0x08002400)  returns 0x00 (0000ms, 0660ms total)
T1998 001:843 JLINK_WriteReg(R1, 0x00000400)  returns 0x00 (0000ms, 0660ms total)
T1998 001:843 JLINK_WriteReg(R2, 0x20000180)  returns 0x00 (0000ms, 0660ms total)
T1998 001:843 JLINK_WriteReg(R3, 0x00000000)  returns 0x00 (0000ms, 0660ms total)
T1998 001:843 JLINK_WriteReg(R4, 0x00000000)  returns 0x00 (0001ms, 0661ms total)
T1998 001:844 JLINK_WriteReg(R5, 0x00000000)  returns 0x00 (0000ms, 0661ms total)
T1998 001:844 JLINK_WriteReg(R6, 0x00000000)  returns 0x00 (0000ms, 0661ms total)
T1998 001:844 JLINK_WriteReg(R7, 0x00000000)  returns 0x00 (0000ms, 0661ms total)
T1998 001:844 JLINK_WriteReg(R8, 0x00000000)  returns 0x00 (0000ms, 0661ms total)
T1998 001:844 JLINK_WriteReg(R9, 0x2000017C)  returns 0x00 (0000ms, 0661ms total)
T1998 001:844 JLINK_WriteReg(R10, 0x00000000)  returns 0x00 (0000ms, 0661ms total)
T1998 001:844 JLINK_WriteReg(R11, 0x00000000)  returns 0x00 (0000ms, 0661ms total)
T1998 001:844 JLINK_WriteReg(R12, 0x00000000)  returns 0x00 (0000ms, 0661ms total)
T1998 001:844 JLINK_WriteReg(R13 (SP), 0x20001000)  returns 0x00 (0000ms, 0661ms total)
T1998 001:844 JLINK_WriteReg(R14, 0x20000001)  returns 0x00 (0000ms, 0661ms total)
T1998 001:844 JLINK_WriteReg(R15 (PC), 0x20000108)  returns 0x00 (0000ms, 0661ms total)
T1998 001:844 JLINK_WriteReg(XPSR, 0x01000000)  returns 0x00 (0000ms, 0661ms total)
T1998 001:844 JLINK_WriteReg(MSP, 0x20001000)  returns 0x00 (0000ms, 0661ms total)
T1998 001:844 JLINK_WriteReg(PSP, 0x20001000)  returns 0x00 (0000ms, 0661ms total)
T1998 001:844 JLINK_WriteReg(CFBP, 0x00000000)  returns 0x00 (0000ms, 0661ms total)
T1998 001:844 JLINK_SetBPEx(Addr = 0x20000000, Type = 0xFFFFFFF2)  returns 0x0000000F (0000ms, 0661ms total)
T1998 001:844 JLINK_Go() (0001ms, 0662ms total)
T1998 001:845 JLINK_IsHalted()  returns FALSE (0001ms, 0663ms total)
T1998 001:849 JLINK_IsHalted()  returns FALSE (0000ms, 0662ms total)
T1998 001:851 JLINK_IsHalted() -- CPU_ReadMem(2 bytes @ 0x20000000)  returns TRUE (0002ms, 0664ms total)
T1998 001:853 JLINK_ReadReg(R15 (PC))  returns 0x20000000 (0000ms, 0662ms total)
T1998 001:853 JLINK_ClrBPEx(BPHandle = 0x0000000F)  returns 0x00 (0000ms, 0662ms total)
T1998 001:853 JLINK_ReadReg(R0)  returns 0x00000000 (0000ms, 0662ms total)
T1998 001:854 JLINK_WriteMem(0x20000180, 0x0400 Bytes, ...) - Data: 07 2A 05 DB 03 46 41 46 20 46 00 F0 0D FB 0B E1 ... -- CPU_WriteMem(1024 bytes @ 0x20000180)  returns 0x400 (0005ms, 0667ms total)
T1998 001:859 JLINK_WriteReg(R0, 0x08002800)  returns 0x00 (0000ms, 0667ms total)
T1998 001:859 JLINK_WriteReg(R1, 0x00000400)  returns 0x00 (0000ms, 0667ms total)
T1998 001:859 JLINK_WriteReg(R2, 0x20000180)  returns 0x00 (0000ms, 0667ms total)
T1998 001:859 JLINK_WriteReg(R3, 0x00000000)  returns 0x00 (0000ms, 0667ms total)
T1998 001:859 JLINK_WriteReg(R4, 0x00000000)  returns 0x00 (0000ms, 0667ms total)
T1998 001:859 JLINK_WriteReg(R5, 0x00000000)  returns 0x00 (0000ms, 0667ms total)
T1998 001:859 JLINK_WriteReg(R6, 0x00000000)  returns 0x00 (0000ms, 0667ms total)
T1998 001:859 JLINK_WriteReg(R7, 0x00000000)  returns 0x00 (0000ms, 0667ms total)
T1998 001:859 JLINK_WriteReg(R8, 0x00000000)  returns 0x00 (0000ms, 0667ms total)
T1998 001:859 JLINK_WriteReg(R9, 0x2000017C)  returns 0x00 (0000ms, 0667ms total)
T1998 001:859 JLINK_WriteReg(R10, 0x00000000)  returns 0x00 (0000ms, 0667ms total)
T1998 001:859 JLINK_WriteReg(R11, 0x00000000)  returns 0x00 (0000ms, 0667ms total)
T1998 001:859 JLINK_WriteReg(R12, 0x00000000)  returns 0x00 (0000ms, 0667ms total)
T1998 001:859 JLINK_WriteReg(R13 (SP), 0x20001000)  returns 0x00 (0000ms, 0667ms total)
T1998 001:859 JLINK_WriteReg(R14, 0x20000001)  returns 0x00 (0000ms, 0667ms total)
T1998 001:859 JLINK_WriteReg(R15 (PC), 0x20000108)  returns 0x00 (0000ms, 0667ms total)
T1998 001:859 JLINK_WriteReg(XPSR, 0x01000000)  returns 0x00 (0000ms, 0667ms total)
T1998 001:859 JLINK_WriteReg(MSP, 0x20001000)  returns 0x00 (0000ms, 0667ms total)
T1998 001:859 JLINK_WriteReg(PSP, 0x20001000)  returns 0x00 (0000ms, 0667ms total)
T1998 001:859 JLINK_WriteReg(CFBP, 0x00000000)  returns 0x00 (0000ms, 0667ms total)
T1998 001:859 JLINK_SetBPEx(Addr = 0x20000000, Type = 0xFFFFFFF2)  returns 0x00000010 (0000ms, 0667ms total)
T1998 001:859 JLINK_Go() (0001ms, 0668ms total)
T1998 001:860 JLINK_IsHalted()  returns FALSE (0000ms, 0668ms total)
T1998 001:872 JLINK_IsHalted() -- CPU_ReadMem(2 bytes @ 0x20000000)  returns TRUE (0002ms, 0670ms total)
T1998 001:874 JLINK_ReadReg(R15 (PC))  returns 0x20000000 (0000ms, 0668ms total)
T1998 001:874 JLINK_ClrBPEx(BPHandle = 0x00000010)  returns 0x00 (0000ms, 0668ms total)
T1998 001:874 JLINK_ReadReg(R0)  returns 0x00000000 (0000ms, 0668ms total)
T1998 001:875 JLINK_WriteMem(0x20000180, 0x0400 Bytes, ...) - Data: 2E 29 01 D1 A8 F1 01 08 00 2D 05 DD 3E 21 02 F8 ... -- CPU_WriteMem(1024 bytes @ 0x20000180)  returns 0x400 (0004ms, 0672ms total)
T1998 001:879 JLINK_WriteReg(R0, 0x08002C00)  returns 0x00 (0000ms, 0672ms total)
T1998 001:879 JLINK_WriteReg(R1, 0x00000400)  returns 0x00 (0000ms, 0672ms total)
T1998 001:879 JLINK_WriteReg(R2, 0x20000180)  returns 0x00 (0000ms, 0672ms total)
T1998 001:879 JLINK_WriteReg(R3, 0x00000000)  returns 0x00 (0000ms, 0672ms total)
T1998 001:879 JLINK_WriteReg(R4, 0x00000000)  returns 0x00 (0001ms, 0673ms total)
T1998 001:880 JLINK_WriteReg(R5, 0x00000000)  returns 0x00 (0000ms, 0673ms total)
T1998 001:880 JLINK_WriteReg(R6, 0x00000000)  returns 0x00 (0000ms, 0673ms total)
T1998 001:880 JLINK_WriteReg(R7, 0x00000000)  returns 0x00 (0000ms, 0673ms total)
T1998 001:880 JLINK_WriteReg(R8, 0x00000000)  returns 0x00 (0000ms, 0673ms total)
T1998 001:880 JLINK_WriteReg(R9, 0x2000017C)  returns 0x00 (0000ms, 0673ms total)
T1998 001:880 JLINK_WriteReg(R10, 0x00000000)  returns 0x00 (0000ms, 0673ms total)
